
T0F1C 000:579 SEGGER J-Link V4.86b Log File (0002ms, 0312ms total)
T0F1C 000:579 DLL Compiled: Jun 27 2014 20:11:00 (0002ms, 0312ms total)
T0F1C 000:579 Logging started @ 2018-05-25 11:55 (0002ms, 0312ms total)
T0F1C 000:581 JLINK_SetWarnOutHandler(...) (0000ms, 0312ms total)
T0F1C 000:581 JLINK_OpenEx(...)
Firmware: J-Link ARM V8 compiled Nov 25 2013 19:20:08
Hardware: V8.00
Feature(s): RDI,FlashDL,FlashBP,JFlash,GDBFull  returns O.K. (0273ms, 0585ms total)
T0F1C 000:854 JLINK_SetErrorOutHandler(...) (0000ms, 0585ms total)
T0F1C 000:854 JLINK_TIF_Select(JLINKARM_TIF_JTAG)  returns 0x00 (0003ms, 0588ms total)
T0F1C 000:857 JLINK_SetSpeed(2000) (0001ms, 0589ms total)
T0F1C 000:858 JLINK_GetHardwareVersion()  returns 0x13880 (0000ms, 0589ms total)
T0F1C 000:858 JLINK_GetDLLVersion()  returns 48602 (0000ms, 0589ms total)
T0F1C 000:858 JLINK_GetFirmwareString(...) (0000ms, 0589ms total)
T0F1C 000:869 JLINK_GetDLLVersion()  returns 48602 (0001ms, 0590ms total)
T0F1C 000:870 JLINK_GetCompileDateTime() (0000ms, 0590ms total)
T0F1C 000:877 JLINK_GetFirmwareString(...) (0000ms, 0590ms total)
T0F1C 000:884 JLINK_GetHardwareVersion()  returns 0x13880 (0000ms, 0590ms total)
T0F1C 000:909 JLINK_GetIdData(...) >0x2F8 JTAG>TotalIRLen = 9, IRPrint = 0x0011 >0x30 JTAG> >0x210 JTAG> >0x70 JTAG> >0x40 JTAG> >0x40 JTAG> >0x40 JTAG> >0x50 JTAG> >0x80 JTAG> >0x40 JTAG> >0x30 JTAG> >0x40 JTAG> >0x40 JTAG> >0x30 JTAG> >0x40 JTAG> >0x50 JTAG>Found Cortex-M3 r1p1, Little endian. -- CPU_WriteMem(4 bytes @ 0xE0002000) -- CPU_ReadMem(4 bytes @ 0xE000EDF0) -- CPU_ReadMem(4 bytes @ 0xE0002000)FPUnit: 6 code (BP) slots and 2 literal slots -- CPU_ReadMem(4 bytes @ 0xE000EDFC)
 -- CPU_ReadMem(4 bytes @ 0xE0001000) -- CPU_WriteMem(4 bytes @ 0xE0001000) -- CPU_ReadMem(4 bytes @ 0xE00FF010)TPIU fitted. -- CPU_ReadMem(4 bytes @ 0xE00FF014)ETM fitted. -- CPU_ReadMem(4 bytes @ 0xE00FF018) ScanLen=9 NumDevices=2 aId[0]=0x3BA00477 aIrRead[0]=0 aScanLen[0]=0 aScanRead[0]=0 (0037ms, 0627ms total)
T0F1C 000:946 JLINK_JTAG_GetDeviceID(DeviceIndex = 0)  returns 0x3BA00477 (0000ms, 0627ms total)
T0F1C 000:946 JLINK_JTAG_GetDeviceInfo(DeviceIndex = 0)  returns 0x00 (0000ms, 0627ms total)
T0F1C 000:946 JLINK_JTAG_GetDeviceID(DeviceIndex = 1)  returns 0x6418041 (0000ms, 0627ms total)
T0F1C 000:946 JLINK_JTAG_GetDeviceInfo(DeviceIndex = 1)  returns 0x00 (0000ms, 0627ms total)
T0F1C 000:946 JLINK_ReadMem (0xE00FF000, 0x0018 Bytes, ...) -- CPU is running -- CPU_ReadMem(24 bytes @ 0xE00FF000) - Data: 03 F0 F0 FF 03 20 F0 FF 03 30 F0 FF 03 10 F0 FF ...  returns 0x00 (0001ms, 0628ms total)
T0F1C 000:947 JLINK_ReadMemU32(0xE000ED00, 0x0001 Items, ...) -- CPU is running -- CPU_ReadMem(4 bytes @ 0xE000ED00) - Data: 31 C2 1F 41  returns 0x01 (0001ms, 0629ms total)
T0F1C 000:948 JLINK_Reset() -- CPU is running -- CPU_WriteMem(4 bytes @ 0xE000EDF0) -- CPU is running -- CPU_WriteMem(4 bytes @ 0xE000EDFC) -- CPU is running -- CPU_WriteMem(4 bytes @ 0xE000ED0C) -- CPU is running -- CPU_ReadMem(4 bytes @ 0xE000EDF0) -- CPU is running -- CPU_ReadMem(4 bytes @ 0xE000EDF0) -- CPU is running -- CPU_WriteMem(4 bytes @ 0xE000EDF0) -- CPU is running -- CPU_WriteMem(4 bytes @ 0xE000EDFC) -- CPU is running -- CPU_ReadMem(4 bytes @ 0xE000EDF0) >0x80 JTAG> >0x40 JTAG> >0x30 JTAG>
 >0x40 JTAG> >0x50 JTAG> >0x40 JTAG> -- CPU_WriteMem(4 bytes @ 0xE000EDFC) -- CPU_WriteMem(4 bytes @ 0xE0001028) -- CPU_WriteMem(4 bytes @ 0xE0001038) -- CPU_WriteMem(4 bytes @ 0xE0001048) -- CPU_WriteMem(4 bytes @ 0xE0001058) -- CPU_WriteMem(4 bytes @ 0xE0002000) -- CPU_ReadMem(4 bytes @ 0xE000EDFC) -- CPU_ReadMem(4 bytes @ 0xE0001000) (0048ms, 0677ms total)
T0F1C 000:997 JLINK_Halt()  returns 0x00 (0000ms, 0678ms total)
T0F1C 000:997 JLINK_IsHalted()  returns TRUE (0000ms, 0678ms total)
T0F1C 000:997 JLINK_ReadMemU32(0xE000EDF0, 0x0001 Items, ...) -- CPU_ReadMem(4 bytes @ 0xE000EDF0) - Data: 03 00 03 00  returns 0x01 (0001ms, 0679ms total)
T0F1C 000:998 JLINK_WriteU32(0xE000EDF0, 0xA05F0003) -- CPU_WriteMem(4 bytes @ 0xE000EDF0)  returns 0x00 (0000ms, 0679ms total)
T0F1C 000:999 JLINK_WriteU32(0xE000EDFC, 0x01000000) -- CPU_WriteMem(4 bytes @ 0xE000EDFC)  returns 0x00 (0001ms, 0681ms total)
T0F1C 001:000 JLINK_ReadMemU32(0xE0002000, 0x0001 Items, ...) -- CPU_ReadMem(4 bytes @ 0xE0002000) - Data: 61 02 00 00  returns 0x01 (0001ms, 0682ms total)
T0F1C 001:001 JLINK_ReadMemU32(0xE0001000, 0x0001 Items, ...) -- CPU_ReadMem(4 bytes @ 0xE0001000) - Data: 01 00 00 40  returns 0x01 (0001ms, 0683ms total)
T0F1C 001:009 JLINK_ExecCommand("Device = STM32F107VC", ...)Device "STM32F107VC" selected (256 KB flash, 64 KB RAM).  returns 0x00 (0003ms, 0686ms total)
T0F1C 001:013 JLINK_GetHWStatus(...)  returns 0x00 (0000ms, 0687ms total)
T0F1C 001:036 JLINK_GetNumBPUnits(Type = 0xFFFFFF00)  returns 0x06 (0000ms, 0687ms total)
T0F1C 001:036 JLINK_GetNumBPUnits(Type = 0xF0)  returns 0x2000 (0000ms, 0687ms total)
T0F1C 001:036 JLINK_GetNumWPUnits()  returns 0x04 (0000ms, 0687ms total)
T0F1C 001:058 JLINK_GetSpeed()  returns 0x7D0 (0000ms, 0687ms total)
T0F1C 001:077 JLINK_ReadMemU32(0xE000E004, 0x0001 Items, ...) -- CPU_ReadMem(4 bytes @ 0xE000E004) - Data: 02 00 00 00  returns 0x01 (0001ms, 0688ms total)
T0F1C 001:078 JLINK_WriteMem(0xE0001000, 0x001C Bytes, ...) - Data: 01 00 00 00 00 00 00 00 00 00 00 00 00 00 00 00 ... -- CPU_WriteMem(28 bytes @ 0xE0001000)  returns 0x1C (0001ms, 0689ms total)
T0F1C 001:079 JLINK_ReadMem (0xE0001000, 0x001C Bytes, ...) -- CPU_ReadMem(28 bytes @ 0xE0001000) - Data: 01 00 00 40 00 00 00 00 00 00 00 00 00 00 00 00 ...  returns 0x00 (0001ms, 0690ms total)
T0F1C 001:080 JLINK_SetResetType(JLINKARM_RESET_TYPE_NORMAL)  returns JLINKARM_RESET_TYPE_NORMAL (0000ms, 0690ms total)
T0F1C 001:080 JLINK_Reset() -- CPU_WriteMem(4 bytes @ 0xE000EDF0) -- CPU_WriteMem(4 bytes @ 0xE000EDFC) -- CPU_WriteMem(4 bytes @ 0xE000ED0C) -- CPU_ReadMem(4 bytes @ 0xE000EDF0) -- CPU_ReadMem(4 bytes @ 0xE000EDF0) -- CPU_WriteMem(4 bytes @ 0xE000EDF0) -- CPU_WriteMem(4 bytes @ 0xE000EDFC) -- CPU is running -- CPU_ReadMem(4 bytes @ 0xE000EDF0) >0x80 JTAG> >0x40 JTAG> >0x30 JTAG> >0x40 JTAG> >0x50 JTAG> >0x40 JTAG> -- CPU_WriteMem(4 bytes @ 0xE000EDFC) -- CPU_WriteMem(4 bytes @ 0xE0001028)
 -- CPU_WriteMem(4 bytes @ 0xE0001038) -- CPU_WriteMem(4 bytes @ 0xE0001048) -- CPU_WriteMem(4 bytes @ 0xE0001058) -- CPU_WriteMem(4 bytes @ 0xE0002000) -- CPU_ReadMem(4 bytes @ 0xE000EDFC) -- CPU_ReadMem(4 bytes @ 0xE0001000) (0033ms, 0723ms total)
T0F1C 001:113 JLINK_Halt()  returns 0x00 (0000ms, 0723ms total)
T0F1C 001:113 JLINK_IsHalted()  returns TRUE (0000ms, 0723ms total)
T0F1C 001:117 JLINK_WriteMem(0x20000000, 0x0164 Bytes, ...) - Data: 00 BE 0A E0 0D 78 2D 06 68 40 08 24 40 00 00 D3 ... -- CPU_WriteMem(356 bytes @ 0x20000000)  returns 0x164 (0004ms, 0727ms total)
T0F1C 001:121 JLINK_ReadMem (0x20000000, 0x0164 Bytes, ...) -- CPU_ReadMem(384 bytes @ 0x20000000) -- Updating C cache (384 bytes @ 0x20000000) -- Read from C cache (356 bytes @ 0x20000000) - Data: 00 BE 0A E0 0D 78 2D 06 68 40 08 24 40 00 00 D3 ...  returns 0x00 (0004ms, 0731ms total)
T0F1C 001:125 JLINK_WriteReg(R0, 0x08000000)  returns 0x00 (0000ms, 0731ms total)
T0F1C 001:125 JLINK_WriteReg(R1, 0x017D7840)  returns 0x00 (0000ms, 0731ms total)
T0F1C 001:125 JLINK_WriteReg(R2, 0x00000001)  returns 0x00 (0000ms, 0731ms total)
T0F1C 001:125 JLINK_WriteReg(R3, 0x00000000)  returns 0x00 (0000ms, 0731ms total)
T0F1C 001:125 JLINK_WriteReg(R4, 0x00000000)  returns 0x00 (0001ms, 0732ms total)
T0F1C 001:126 JLINK_WriteReg(R5, 0x00000000)  returns 0x00 (0000ms, 0732ms total)
T0F1C 001:126 JLINK_WriteReg(R6, 0x00000000)  returns 0x00 (0000ms, 0732ms total)
T0F1C 001:126 JLINK_WriteReg(R7, 0x00000000)  returns 0x00 (0000ms, 0732ms total)
T0F1C 001:126 JLINK_WriteReg(R8, 0x00000000)  returns 0x00 (0000ms, 0732ms total)
T0F1C 001:126 JLINK_WriteReg(R9, 0x20000160)  returns 0x00 (0000ms, 0732ms total)
T0F1C 001:126 JLINK_WriteReg(R10, 0x00000000)  returns 0x00 (0000ms, 0732ms total)
T0F1C 001:126 JLINK_WriteReg(R11, 0x00000000)  returns 0x00 (0000ms, 0732ms total)
T0F1C 001:126 JLINK_WriteReg(R12, 0x00000000)  returns 0x00 (0000ms, 0732ms total)
T0F1C 001:126 JLINK_WriteReg(R13 (SP), 0x20000800)  returns 0x00 (0000ms, 0732ms total)
T0F1C 001:126 JLINK_WriteReg(R14, 0x20000001)  returns 0x00 (0000ms, 0732ms total)
T0F1C 001:126 JLINK_WriteReg(R15 (PC), 0x20000038)  returns 0x00 (0000ms, 0732ms total)
T0F1C 001:126 JLINK_WriteReg(XPSR, 0x01000000)  returns 0x00 (0001ms, 0733ms total)
T0F1C 001:127 JLINK_WriteReg(MSP, 0x20000800)  returns 0x00 (0000ms, 0733ms total)
T0F1C 001:127 JLINK_WriteReg(PSP, 0x20000800)  returns 0x00 (0000ms, 0733ms total)
T0F1C 001:127 JLINK_WriteReg(CFBP, 0x00000000)  returns 0x00 (0000ms, 0733ms total)
T0F1C 001:127 JLINK_SetBPEx(Addr = 0x20000000, Type = 0xFFFFFFF2) -- CPU_ReadMem(2 bytes @ 0x20000000)  returns 0x00000001 (0001ms, 0734ms total)
T0F1C 001:128 JLINK_Go() -- CPU_WriteMem(2 bytes @ 0x20000000) -- CPU_WriteMem(4 bytes @ 0xE0002008) -- CPU_WriteMem(4 bytes @ 0xE000200C) -- CPU_WriteMem(4 bytes @ 0xE0002010) -- CPU_WriteMem(4 bytes @ 0xE0002014) -- CPU_WriteMem(4 bytes @ 0xE0002018) -- CPU_WriteMem(4 bytes @ 0xE000201C) -- CPU_WriteMem(4 bytes @ 0xE0001004) (0009ms, 0743ms total)
T0F1C 001:137 JLINK_IsHalted() -- CPU_ReadMem(2 bytes @ 0x20000000)  returns TRUE (0006ms, 0749ms total)
T0F1C 001:143 JLINK_ReadReg(R15 (PC))  returns 0x20000000 (0000ms, 0743ms total)
T0F1C 001:143 JLINK_ClrBPEx(BPHandle = 0x00000001)  returns 0x00 (0000ms, 0743ms total)
T0F1C 001:143 JLINK_ReadReg(R0)  returns 0x00000000 (0000ms, 0743ms total)
T0F1C 001:143 JLINK_WriteReg(R0, 0x08000000)  returns 0x00 (0001ms, 0744ms total)
T0F1C 001:144 JLINK_WriteReg(R1, 0x017D7840)  returns 0x00 (0000ms, 0744ms total)
T0F1C 001:144 JLINK_WriteReg(R2, 0x00000001)  returns 0x00 (0000ms, 0744ms total)
T0F1C 001:144 JLINK_WriteReg(R3, 0x00000000)  returns 0x00 (0000ms, 0744ms total)
T0F1C 001:144 JLINK_WriteReg(R4, 0x00000000)  returns 0x00 (0000ms, 0744ms total)
T0F1C 001:144 JLINK_WriteReg(R5, 0x00000000)  returns 0x00 (0000ms, 0744ms total)
T0F1C 001:144 JLINK_WriteReg(R6, 0x00000000)  returns 0x00 (0000ms, 0744ms total)
T0F1C 001:144 JLINK_WriteReg(R7, 0x00000000)  returns 0x00 (0000ms, 0744ms total)
T0F1C 001:144 JLINK_WriteReg(R8, 0x00000000)  returns 0x00 (0000ms, 0744ms total)
T0F1C 001:144 JLINK_WriteReg(R9, 0x20000160)  returns 0x00 (0000ms, 0744ms total)
T0F1C 001:144 JLINK_WriteReg(R10, 0x00000000)  returns 0x00 (0000ms, 0744ms total)
T0F1C 001:144 JLINK_WriteReg(R11, 0x00000000)  returns 0x00 (0000ms, 0744ms total)
T0F1C 001:144 JLINK_WriteReg(R12, 0x00000000)  returns 0x00 (0001ms, 0745ms total)
T0F1C 001:145 JLINK_WriteReg(R13 (SP), 0x20000800)  returns 0x00 (0000ms, 0745ms total)
T0F1C 001:145 JLINK_WriteReg(R14, 0x20000001)  returns 0x00 (0000ms, 0745ms total)
T0F1C 001:145 JLINK_WriteReg(R15 (PC), 0x2000007C)  returns 0x00 (0000ms, 0745ms total)
T0F1C 001:145 JLINK_WriteReg(XPSR, 0x01000000)  returns 0x00 (0000ms, 0745ms total)
T0F1C 001:145 JLINK_WriteReg(MSP, 0x20000800)  returns 0x00 (0000ms, 0745ms total)
T0F1C 001:145 JLINK_WriteReg(PSP, 0x20000800)  returns 0x00 (0000ms, 0745ms total)
T0F1C 001:145 JLINK_WriteReg(CFBP, 0x00000000)  returns 0x00 (0000ms, 0745ms total)
T0F1C 001:145 JLINK_SetBPEx(Addr = 0x20000000, Type = 0xFFFFFFF2)  returns 0x00000002 (0000ms, 0745ms total)
T0F1C 001:145 JLINK_Go() (0002ms, 0747ms total)
T0F1C 001:147 JLINK_IsHalted()  returns FALSE (0001ms, 0748ms total)
T0F1C 001:198 JLINK_IsHalted() -- CPU_ReadMem(2 bytes @ 0x20000000)  returns TRUE (0006ms, 0753ms total)
T0F1C 001:204 JLINK_ReadReg(R15 (PC))  returns 0x20000000 (0000ms, 0747ms total)
T0F1C 001:204 JLINK_ClrBPEx(BPHandle = 0x00000002)  returns 0x00 (0001ms, 0748ms total)
T0F1C 001:205 JLINK_ReadReg(R0)  returns 0x00000000 (0000ms, 0748ms total)
T0F1C 001:256 JLINK_WriteReg(R0, 0x00000001)  returns 0x00 (0000ms, 0748ms total)
T0F1C 001:256 JLINK_WriteReg(R1, 0x017D7840)  returns 0x00 (0000ms, 0748ms total)
T0F1C 001:256 JLINK_WriteReg(R2, 0x00000001)  returns 0x00 (0000ms, 0748ms total)
T0F1C 001:256 JLINK_WriteReg(R3, 0x00000000)  returns 0x00 (0000ms, 0748ms total)
T0F1C 001:256 JLINK_WriteReg(R4, 0x00000000)  returns 0x00 (0000ms, 0748ms total)
T0F1C 001:256 JLINK_WriteReg(R5, 0x00000000)  returns 0x00 (0000ms, 0748ms total)
T0F1C 001:257 JLINK_WriteReg(R6, 0x00000000)  returns 0x00 (0000ms, 0749ms total)
T0F1C 001:257 JLINK_WriteReg(R7, 0x00000000)  returns 0x00 (0000ms, 0749ms total)
T0F1C 001:257 JLINK_WriteReg(R8, 0x00000000)  returns 0x00 (0000ms, 0749ms total)
T0F1C 001:257 JLINK_WriteReg(R9, 0x20000160)  returns 0x00 (0000ms, 0749ms total)
T0F1C 001:257 JLINK_WriteReg(R10, 0x00000000)  returns 0x00 (0000ms, 0749ms total)
T0F1C 001:257 JLINK_WriteReg(R11, 0x00000000)  returns 0x00 (0000ms, 0749ms total)
T0F1C 001:257 JLINK_WriteReg(R12, 0x00000000)  returns 0x00 (0000ms, 0749ms total)
T0F1C 001:257 JLINK_WriteReg(R13 (SP), 0x20000800)  returns 0x00 (0000ms, 0749ms total)
T0F1C 001:257 JLINK_WriteReg(R14, 0x20000001)  returns 0x00 (0000ms, 0749ms total)
T0F1C 001:257 JLINK_WriteReg(R15 (PC), 0x2000006A)  returns 0x00 (0000ms, 0749ms total)
T0F1C 001:257 JLINK_WriteReg(XPSR, 0x01000000)  returns 0x00 (0000ms, 0749ms total)
T0F1C 001:257 JLINK_WriteReg(MSP, 0x20000800)  returns 0x00 (0001ms, 0750ms total)
T0F1C 001:258 JLINK_WriteReg(PSP, 0x20000800)  returns 0x00 (0000ms, 0750ms total)
T0F1C 001:258 JLINK_WriteReg(CFBP, 0x00000000)  returns 0x00 (0000ms, 0750ms total)
T0F1C 001:258 JLINK_SetBPEx(Addr = 0x20000000, Type = 0xFFFFFFF2)  returns 0x00000003 (0000ms, 0750ms total)
T0F1C 001:258 JLINK_Go() (0002ms, 0752ms total)
T0F1C 001:260 JLINK_IsHalted() -- CPU_ReadMem(2 bytes @ 0x20000000)  returns TRUE (0006ms, 0758ms total)
T0F1C 001:266 JLINK_ReadReg(R15 (PC))  returns 0x20000000 (0000ms, 0752ms total)
T0F1C 001:267 JLINK_ClrBPEx(BPHandle = 0x00000003)  returns 0x00 (0000ms, 0753ms total)
T0F1C 001:267 JLINK_ReadReg(R0)  returns 0x00000000 (0000ms, 0753ms total)
T0F1C 001:273 JLINK_WriteMem(0x20000000, 0x0164 Bytes, ...) - Data: 00 BE 0A E0 0D 78 2D 06 68 40 08 24 40 00 00 D3 ... -- CPU_WriteMem(356 bytes @ 0x20000000)  returns 0x164 (0003ms, 0756ms total)
T0F1C 001:276 JLINK_ReadMem (0x20000000, 0x0164 Bytes, ...) -- CPU_ReadMem(384 bytes @ 0x20000000) -- Updating C cache (384 bytes @ 0x20000000) -- Read from C cache (356 bytes @ 0x20000000) - Data: 00 BE 0A E0 0D 78 2D 06 68 40 08 24 40 00 00 D3 ...  returns 0x00 (0004ms, 0760ms total)
T0F1C 001:280 JLINK_WriteReg(R0, 0x08000000)  returns 0x00 (0000ms, 0760ms total)
T0F1C 001:280 JLINK_WriteReg(R1, 0x017D7840)  returns 0x00 (0000ms, 0760ms total)
T0F1C 001:280 JLINK_WriteReg(R2, 0x00000002)  returns 0x00 (0000ms, 0760ms total)
T0F1C 001:280 JLINK_WriteReg(R3, 0x00000000)  returns 0x00 (0000ms, 0760ms total)
T0F1C 001:280 JLINK_WriteReg(R4, 0x00000000)  returns 0x00 (0001ms, 0761ms total)
T0F1C 001:281 JLINK_WriteReg(R5, 0x00000000)  returns 0x00 (0000ms, 0761ms total)
T0F1C 001:281 JLINK_WriteReg(R6, 0x00000000)  returns 0x00 (0000ms, 0761ms total)
T0F1C 001:281 JLINK_WriteReg(R7, 0x00000000)  returns 0x00 (0000ms, 0761ms total)
T0F1C 001:281 JLINK_WriteReg(R8, 0x00000000)  returns 0x00 (0000ms, 0761ms total)
T0F1C 001:281 JLINK_WriteReg(R9, 0x20000160)  returns 0x00 (0000ms, 0761ms total)
T0F1C 001:281 JLINK_WriteReg(R10, 0x00000000)  returns 0x00 (0000ms, 0761ms total)
T0F1C 001:281 JLINK_WriteReg(R11, 0x00000000)  returns 0x00 (0000ms, 0761ms total)
T0F1C 001:281 JLINK_WriteReg(R12, 0x00000000)  returns 0x00 (0000ms, 0761ms total)
T0F1C 001:281 JLINK_WriteReg(R13 (SP), 0x20000800)  returns 0x00 (0000ms, 0761ms total)
T0F1C 001:281 JLINK_WriteReg(R14, 0x20000001)  returns 0x00 (0000ms, 0761ms total)
T0F1C 001:281 JLINK_WriteReg(R15 (PC), 0x20000038)  returns 0x00 (0000ms, 0761ms total)
T0F1C 001:281 JLINK_WriteReg(XPSR, 0x01000000)  returns 0x00 (0001ms, 0762ms total)
T0F1C 001:282 JLINK_WriteReg(MSP, 0x20000800)  returns 0x00 (0000ms, 0762ms total)
T0F1C 001:282 JLINK_WriteReg(PSP, 0x20000800)  returns 0x00 (0000ms, 0762ms total)
T0F1C 001:282 JLINK_WriteReg(CFBP, 0x00000000)  returns 0x00 (0000ms, 0762ms total)
T0F1C 001:282 JLINK_SetBPEx(Addr = 0x20000000, Type = 0xFFFFFFF2) -- CPU_ReadMem(2 bytes @ 0x20000000)  returns 0x00000004 (0001ms, 0763ms total)
T0F1C 001:283 JLINK_Go() -- CPU_WriteMem(2 bytes @ 0x20000000) (0003ms, 0766ms total)
T0F1C 001:286 JLINK_IsHalted() -- CPU_ReadMem(2 bytes @ 0x20000000)  returns TRUE (0006ms, 0772ms total)
T0F1C 001:292 JLINK_ReadReg(R15 (PC))  returns 0x20000000 (0000ms, 0766ms total)
T0F1C 001:292 JLINK_ClrBPEx(BPHandle = 0x00000004)  returns 0x00 (0000ms, 0766ms total)
T0F1C 001:292 JLINK_ReadReg(R0)  returns 0x00000000 (0000ms, 0766ms total)
T0F1C 001:292 JLINK_WriteMem(0x20000164, 0x0400 Bytes, ...) - Data: B8 CF 00 20 89 01 00 08 55 19 00 08 7D 12 00 08 ... -- CPU_WriteMem(1024 bytes @ 0x20000164)  returns 0x400 (0007ms, 0773ms total)
T0F1C 001:299 JLINK_ReadMem (0x20000164, 0x0400 Bytes, ...) -- CPU_ReadMem(1088 bytes @ 0x20000140) -- Updating C cache (1088 bytes @ 0x20000140) -- Read from C cache (1024 bytes @ 0x20000164) - Data: B8 CF 00 20 89 01 00 08 55 19 00 08 7D 12 00 08 ...  returns 0x00 (0008ms, 0781ms total)
T0F1C 001:307 JLINK_WriteReg(R0, 0x08000000)  returns 0x00 (0000ms, 0781ms total)
T0F1C 001:307 JLINK_WriteReg(R1, 0x00000400)  returns 0x00 (0000ms, 0781ms total)
T0F1C 001:307 JLINK_WriteReg(R2, 0x20000164)  returns 0x00 (0001ms, 0782ms total)
T0F1C 001:308 JLINK_WriteReg(R3, 0x00000000)  returns 0x00 (0000ms, 0782ms total)
T0F1C 001:308 JLINK_WriteReg(R4, 0x00000000)  returns 0x00 (0000ms, 0782ms total)
T0F1C 001:308 JLINK_WriteReg(R5, 0x00000000)  returns 0x00 (0000ms, 0782ms total)
T0F1C 001:308 JLINK_WriteReg(R6, 0x00000000)  returns 0x00 (0000ms, 0782ms total)
T0F1C 001:308 JLINK_WriteReg(R7, 0x00000000)  returns 0x00 (0000ms, 0782ms total)
T0F1C 001:308 JLINK_WriteReg(R8, 0x00000000)  returns 0x00 (0000ms, 0782ms total)
T0F1C 001:308 JLINK_WriteReg(R9, 0x20000160)  returns 0x00 (0000ms, 0782ms total)
T0F1C 001:308 JLINK_WriteReg(R10, 0x00000000)  returns 0x00 (0000ms, 0782ms total)
T0F1C 001:308 JLINK_WriteReg(R11, 0x00000000)  returns 0x00 (0000ms, 0782ms total)
T0F1C 001:308 JLINK_WriteReg(R12, 0x00000000)  returns 0x00 (0000ms, 0782ms total)
T0F1C 001:308 JLINK_WriteReg(R13 (SP), 0x20000800)  returns 0x00 (0000ms, 0782ms total)
T0F1C 001:308 JLINK_WriteReg(R14, 0x20000001)  returns 0x00 (0001ms, 0783ms total)
T0F1C 001:309 JLINK_WriteReg(R15 (PC), 0x200000F4)  returns 0x00 (0000ms, 0783ms total)
T0F1C 001:309 JLINK_WriteReg(XPSR, 0x01000000)  returns 0x00 (0000ms, 0783ms total)
T0F1C 001:309 JLINK_WriteReg(MSP, 0x20000800)  returns 0x00 (0000ms, 0783ms total)
T0F1C 001:309 JLINK_WriteReg(PSP, 0x20000800)  returns 0x00 (0000ms, 0783ms total)
T0F1C 001:309 JLINK_WriteReg(CFBP, 0x00000000)  returns 0x00 (0000ms, 0783ms total)
T0F1C 001:309 JLINK_SetBPEx(Addr = 0x20000000, Type = 0xFFFFFFF2)  returns 0x00000005 (0000ms, 0783ms total)
T0F1C 001:309 JLINK_Go() (0003ms, 0786ms total)
T0F1C 001:312 JLINK_IsHalted()  returns FALSE (0001ms, 0787ms total)
T0F1C 001:365 JLINK_IsHalted() -- CPU_ReadMem(2 bytes @ 0x20000000)  returns TRUE (0007ms, 0793ms total)
T0F1C 001:372 JLINK_ReadReg(R15 (PC))  returns 0x20000000 (0000ms, 0786ms total)
T0F1C 001:372 JLINK_ClrBPEx(BPHandle = 0x00000005)  returns 0x00 (0000ms, 0786ms total)
T0F1C 001:372 JLINK_ReadReg(R0)  returns 0x00000000 (0000ms, 0786ms total)
T0F1C 001:374 JLINK_WriteMem(0x20000164, 0x0400 Bytes, ...) - Data: 00 EB 04 13 4F F4 80 15 1D 60 C4 EB 44 15 05 EB ... -- CPU_WriteMem(1024 bytes @ 0x20000164)  returns 0x400 (0008ms, 0794ms total)
T0F1C 001:382 JLINK_ReadMem (0x20000164, 0x0400 Bytes, ...) -- CPU_ReadMem(1088 bytes @ 0x20000140) -- Updating C cache (1088 bytes @ 0x20000140) -- Read from C cache (1024 bytes @ 0x20000164) - Data: 00 EB 04 13 4F F4 80 15 1D 60 C4 EB 44 15 05 EB ...  returns 0x00 (0008ms, 0802ms total)
T0F1C 001:390 JLINK_WriteReg(R0, 0x08000400)  returns 0x00 (0000ms, 0802ms total)
T0F1C 001:390 JLINK_WriteReg(R1, 0x00000400)  returns 0x00 (0000ms, 0802ms total)
T0F1C 001:390 JLINK_WriteReg(R2, 0x20000164)  returns 0x00 (0001ms, 0803ms total)
T0F1C 001:391 JLINK_WriteReg(R3, 0x00000000)  returns 0x00 (0000ms, 0803ms total)
T0F1C 001:391 JLINK_WriteReg(R4, 0x00000000)  returns 0x00 (0000ms, 0803ms total)
T0F1C 001:391 JLINK_WriteReg(R5, 0x00000000)  returns 0x00 (0000ms, 0803ms total)
T0F1C 001:391 JLINK_WriteReg(R6, 0x00000000)  returns 0x00 (0000ms, 0803ms total)
T0F1C 001:391 JLINK_WriteReg(R7, 0x00000000)  returns 0x00 (0000ms, 0803ms total)
T0F1C 001:391 JLINK_WriteReg(R8, 0x00000000)  returns 0x00 (0000ms, 0803ms total)
T0F1C 001:391 JLINK_WriteReg(R9, 0x20000160)  returns 0x00 (0000ms, 0803ms total)
T0F1C 001:391 JLINK_WriteReg(R10, 0x00000000)  returns 0x00 (0000ms, 0803ms total)
T0F1C 001:391 JLINK_WriteReg(R11, 0x00000000)  returns 0x00 (0000ms, 0803ms total)
T0F1C 001:391 JLINK_WriteReg(R12, 0x00000000)  returns 0x00 (0001ms, 0804ms total)
T0F1C 001:392 JLINK_WriteReg(R13 (SP), 0x20000800)  returns 0x00 (0000ms, 0804ms total)
T0F1C 001:392 JLINK_WriteReg(R14, 0x20000001)  returns 0x00 (0000ms, 0804ms total)
T0F1C 001:392 JLINK_WriteReg(R15 (PC), 0x200000F4)  returns 0x00 (0000ms, 0804ms total)
T0F1C 001:392 JLINK_WriteReg(XPSR, 0x01000000)  returns 0x00 (0000ms, 0804ms total)
T0F1C 001:392 JLINK_WriteReg(MSP, 0x20000800)  returns 0x00 (0000ms, 0804ms total)
T0F1C 001:392 JLINK_WriteReg(PSP, 0x20000800)  returns 0x00 (0000ms, 0804ms total)
T0F1C 001:392 JLINK_WriteReg(CFBP, 0x00000000)  returns 0x00 (0000ms, 0804ms total)
T0F1C 001:392 JLINK_SetBPEx(Addr = 0x20000000, Type = 0xFFFFFFF2)  returns 0x00000006 (0000ms, 0804ms total)
T0F1C 001:392 JLINK_Go() (0003ms, 0807ms total)
T0F1C 001:395 JLINK_IsHalted()  returns FALSE (0001ms, 0808ms total)
T0F1C 001:446 JLINK_IsHalted() -- CPU_ReadMem(2 bytes @ 0x20000000)  returns TRUE (0006ms, 0813ms total)
T0F1C 001:452 JLINK_ReadReg(R15 (PC))  returns 0x20000000 (0000ms, 0807ms total)
T0F1C 001:452 JLINK_ClrBPEx(BPHandle = 0x00000006)  returns 0x00 (0000ms, 0807ms total)
T0F1C 001:452 JLINK_ReadReg(R0)  returns 0x00000000 (0000ms, 0807ms total)
T0F1C 001:453 JLINK_WriteMem(0x20000164, 0x0400 Bytes, ...) - Data: 43 F0 01 03 0A 48 03 61 00 BF 64 1C 08 48 03 69 ... -- CPU_WriteMem(1024 bytes @ 0x20000164)  returns 0x400 (0007ms, 0814ms total)
T0F1C 001:460 JLINK_ReadMem (0x20000164, 0x0400 Bytes, ...) -- CPU_ReadMem(1088 bytes @ 0x20000140) -- Updating C cache (1088 bytes @ 0x20000140) -- Read from C cache (1024 bytes @ 0x20000164) - Data: 43 F0 01 03 0A 48 03 61 00 BF 64 1C 08 48 03 69 ...  returns 0x00 (0008ms, 0822ms total)
T0F1C 001:468 JLINK_WriteReg(R0, 0x08000800)  returns 0x00 (0000ms, 0822ms total)
T0F1C 001:468 JLINK_WriteReg(R1, 0x00000400)  returns 0x00 (0000ms, 0822ms total)
T0F1C 001:468 JLINK_WriteReg(R2, 0x20000164)  returns 0x00 (0000ms, 0822ms total)
T0F1C 001:468 JLINK_WriteReg(R3, 0x00000000)  returns 0x00 (0000ms, 0822ms total)
T0F1C 001:468 JLINK_WriteReg(R4, 0x00000000)  returns 0x00 (0000ms, 0822ms total)
T0F1C 001:469 JLINK_WriteReg(R5, 0x00000000)  returns 0x00 (0000ms, 0823ms total)
T0F1C 001:469 JLINK_WriteReg(R6, 0x00000000)  returns 0x00 (0000ms, 0823ms total)
T0F1C 001:469 JLINK_WriteReg(R7, 0x00000000)  returns 0x00 (0000ms, 0823ms total)
T0F1C 001:469 JLINK_WriteReg(R8, 0x00000000)  returns 0x00 (0000ms, 0823ms total)
T0F1C 001:469 JLINK_WriteReg(R9, 0x20000160)  returns 0x00 (0000ms, 0823ms total)
T0F1C 001:469 JLINK_WriteReg(R10, 0x00000000)  returns 0x00 (0000ms, 0823ms total)
T0F1C 001:469 JLINK_WriteReg(R11, 0x00000000)  returns 0x00 (0000ms, 0823ms total)
T0F1C 001:469 JLINK_WriteReg(R12, 0x00000000)  returns 0x00 (0000ms, 0823ms total)
T0F1C 001:469 JLINK_WriteReg(R13 (SP), 0x20000800)  returns 0x00 (0000ms, 0823ms total)
T0F1C 001:469 JLINK_WriteReg(R14, 0x20000001)  returns 0x00 (0000ms, 0823ms total)
T0F1C 001:469 JLINK_WriteReg(R15 (PC), 0x200000F4)  returns 0x00 (0000ms, 0823ms total)
T0F1C 001:469 JLINK_WriteReg(XPSR, 0x01000000)  returns 0x00 (0000ms, 0823ms total)
T0F1C 001:470 JLINK_WriteReg(MSP, 0x20000800)  returns 0x00 (0000ms, 0823ms total)
T0F1C 001:470 JLINK_WriteReg(PSP, 0x20000800)  returns 0x00 (0000ms, 0823ms total)
T0F1C 001:470 JLINK_WriteReg(CFBP, 0x00000000)  returns 0x00 (0000ms, 0823ms total)
T0F1C 001:470 JLINK_SetBPEx(Addr = 0x20000000, Type = 0xFFFFFFF2)  returns 0x00000007 (0000ms, 0823ms total)
T0F1C 001:470 JLINK_Go() (0002ms, 0825ms total)
T0F1C 001:472 JLINK_IsHalted()  returns FALSE (0001ms, 0826ms total)
T0F1C 001:523 JLINK_IsHalted() -- CPU_ReadMem(2 bytes @ 0x20000000)  returns TRUE (0007ms, 0832ms total)
T0F1C 001:530 JLINK_ReadReg(R15 (PC))  returns 0x20000000 (0000ms, 0825ms total)
T0F1C 001:530 JLINK_ClrBPEx(BPHandle = 0x00000007)  returns 0x00 (0000ms, 0825ms total)
T0F1C 001:530 JLINK_ReadReg(R0)  returns 0x00000000 (0000ms, 0825ms total)
T0F1C 001:531 JLINK_WriteMem(0x20000164, 0x0400 Bytes, ...) - Data: 10 B5 00 23 72 B6 00 23 07 E0 06 4C A0 42 03 D8 ... -- CPU_WriteMem(1024 bytes @ 0x20000164)  returns 0x400 (0008ms, 0833ms total)
T0F1C 001:539 JLINK_ReadMem (0x20000164, 0x0400 Bytes, ...) -- CPU_ReadMem(1088 bytes @ 0x20000140) -- Updating C cache (1088 bytes @ 0x20000140) -- Read from C cache (1024 bytes @ 0x20000164) - Data: 10 B5 00 23 72 B6 00 23 07 E0 06 4C A0 42 03 D8 ...  returns 0x00 (0008ms, 0841ms total)
T0F1C 001:547 JLINK_WriteReg(R0, 0x08000C00)  returns 0x00 (0000ms, 0841ms total)
T0F1C 001:547 JLINK_WriteReg(R1, 0x00000400)  returns 0x00 (0000ms, 0841ms total)
T0F1C 001:547 JLINK_WriteReg(R2, 0x20000164)  returns 0x00 (0001ms, 0842ms total)
T0F1C 001:548 JLINK_WriteReg(R3, 0x00000000)  returns 0x00 (0000ms, 0842ms total)
T0F1C 001:548 JLINK_WriteReg(R4, 0x00000000)  returns 0x00 (0000ms, 0842ms total)
T0F1C 001:548 JLINK_WriteReg(R5, 0x00000000)  returns 0x00 (0000ms, 0842ms total)
T0F1C 001:548 JLINK_WriteReg(R6, 0x00000000)  returns 0x00 (0000ms, 0842ms total)
T0F1C 001:548 JLINK_WriteReg(R7, 0x00000000)  returns 0x00 (0000ms, 0842ms total)
T0F1C 001:548 JLINK_WriteReg(R8, 0x00000000)  returns 0x00 (0001ms, 0843ms total)
T0F1C 001:549 JLINK_WriteReg(R9, 0x20000160)  returns 0x00 (0000ms, 0843ms total)
T0F1C 001:549 JLINK_WriteReg(R10, 0x00000000)  returns 0x00 (0000ms, 0843ms total)
T0F1C 001:549 JLINK_WriteReg(R11, 0x00000000)  returns 0x00 (0000ms, 0843ms total)
T0F1C 001:549 JLINK_WriteReg(R12, 0x00000000)  returns 0x00 (0000ms, 0843ms total)
T0F1C 001:549 JLINK_WriteReg(R13 (SP), 0x20000800)  returns 0x00 (0000ms, 0843ms total)
T0F1C 001:549 JLINK_WriteReg(R14, 0x20000001)  returns 0x00 (0001ms, 0844ms total)
T0F1C 001:550 JLINK_WriteReg(R15 (PC), 0x200000F4)  returns 0x00 (0000ms, 0844ms total)
T0F1C 001:550 JLINK_WriteReg(XPSR, 0x01000000)  returns 0x00 (0000ms, 0844ms total)
T0F1C 001:550 JLINK_WriteReg(MSP, 0x20000800)  returns 0x00 (0000ms, 0844ms total)
T0F1C 001:550 JLINK_WriteReg(PSP, 0x20000800)  returns 0x00 (0000ms, 0844ms total)
T0F1C 001:550 JLINK_WriteReg(CFBP, 0x00000000)  returns 0x00 (0000ms, 0844ms total)
T0F1C 001:550 JLINK_SetBPEx(Addr = 0x20000000, Type = 0xFFFFFFF2)  returns 0x00000008 (0001ms, 0845ms total)
T0F1C 001:551 JLINK_Go() (0002ms, 0847ms total)
T0F1C 001:553 JLINK_IsHalted()  returns FALSE (0001ms, 0848ms total)
T0F1C 001:604 JLINK_IsHalted() -- CPU_ReadMem(2 bytes @ 0x20000000)  returns TRUE (0006ms, 0853ms total)
T0F1C 001:610 JLINK_ReadReg(R15 (PC))  returns 0x20000000 (0001ms, 0848ms total)
T0F1C 001:611 JLINK_ClrBPEx(BPHandle = 0x00000008)  returns 0x00 (0000ms, 0848ms total)
T0F1C 001:611 JLINK_ReadReg(R0)  returns 0x00000000 (0000ms, 0848ms total)
T0F1C 001:613 JLINK_WriteMem(0x20000164, 0x0400 Bytes, ...) - Data: 00 F4 80 16 B6 F5 80 1F 06 D1 03 26 06 FA 05 F3 ... -- CPU_WriteMem(1024 bytes @ 0x20000164)  returns 0x400 (0007ms, 0855ms total)
T0F1C 001:620 JLINK_ReadMem (0x20000164, 0x0400 Bytes, ...) -- CPU_ReadMem(1088 bytes @ 0x20000140) -- Updating C cache (1088 bytes @ 0x20000140) -- Read from C cache (1024 bytes @ 0x20000164) - Data: 00 F4 80 16 B6 F5 80 1F 06 D1 03 26 06 FA 05 F3 ...  returns 0x00 (0008ms, 0863ms total)
T0F1C 001:628 JLINK_WriteReg(R0, 0x08001000)  returns 0x00 (0000ms, 0863ms total)
T0F1C 001:628 JLINK_WriteReg(R1, 0x00000400)  returns 0x00 (0001ms, 0864ms total)
T0F1C 001:629 JLINK_WriteReg(R2, 0x20000164)  returns 0x00 (0000ms, 0864ms total)
T0F1C 001:629 JLINK_WriteReg(R3, 0x00000000)  returns 0x00 (0000ms, 0864ms total)
T0F1C 001:629 JLINK_WriteReg(R4, 0x00000000)  returns 0x00 (0000ms, 0864ms total)
T0F1C 001:629 JLINK_WriteReg(R5, 0x00000000)  returns 0x00 (0000ms, 0864ms total)
T0F1C 001:629 JLINK_WriteReg(R6, 0x00000000)  returns 0x00 (0000ms, 0864ms total)
T0F1C 001:629 JLINK_WriteReg(R7, 0x00000000)  returns 0x00 (0001ms, 0865ms total)
T0F1C 001:630 JLINK_WriteReg(R8, 0x00000000)  returns 0x00 (0000ms, 0865ms total)
T0F1C 001:630 JLINK_WriteReg(R9, 0x20000160)  returns 0x00 (0000ms, 0865ms total)
T0F1C 001:630 JLINK_WriteReg(R10, 0x00000000)  returns 0x00 (0000ms, 0865ms total)
T0F1C 001:630 JLINK_WriteReg(R11, 0x00000000)  returns 0x00 (0000ms, 0865ms total)
T0F1C 001:630 JLINK_WriteReg(R12, 0x00000000)  returns 0x00 (0000ms, 0865ms total)
T0F1C 001:630 JLINK_WriteReg(R13 (SP), 0x20000800)  returns 0x00 (0001ms, 0866ms total)
T0F1C 001:631 JLINK_WriteReg(R14, 0x20000001)  returns 0x00 (0000ms, 0866ms total)
T0F1C 001:631 JLINK_WriteReg(R15 (PC), 0x200000F4)  returns 0x00 (0000ms, 0866ms total)
T0F1C 001:631 JLINK_WriteReg(XPSR, 0x01000000)  returns 0x00 (0000ms, 0866ms total)
T0F1C 001:631 JLINK_WriteReg(MSP, 0x20000800)  returns 0x00 (0000ms, 0866ms total)
T0F1C 001:631 JLINK_WriteReg(PSP, 0x20000800)  returns 0x00 (0000ms, 0866ms total)
T0F1C 001:631 JLINK_WriteReg(CFBP, 0x00000000)  returns 0x00 (0000ms, 0866ms total)
T0F1C 001:631 JLINK_SetBPEx(Addr = 0x20000000, Type = 0xFFFFFFF2)  returns 0x00000009 (0000ms, 0866ms total)
T0F1C 001:631 JLINK_Go() (0003ms, 0869ms total)
T0F1C 001:634 JLINK_IsHalted()  returns FALSE (0000ms, 0869ms total)
T0F1C 001:684 JLINK_IsHalted() -- CPU_ReadMem(2 bytes @ 0x20000000)  returns TRUE (0006ms, 0875ms total)
T0F1C 001:690 JLINK_ReadReg(R15 (PC))  returns 0x20000000 (0000ms, 0869ms total)
T0F1C 001:690 JLINK_ClrBPEx(BPHandle = 0x00000009)  returns 0x00 (0000ms, 0869ms total)
T0F1C 001:690 JLINK_ReadReg(R0)  returns 0x00000000 (0000ms, 0869ms total)
T0F1C 001:693 JLINK_WriteMem(0x20000164, 0x0400 Bytes, ...) - Data: 04 E0 32 46 29 46 40 46 FF F7 96 FF 20 46 07 F0 ... -- CPU_WriteMem(1024 bytes @ 0x20000164)  returns 0x400 (0007ms, 0876ms total)
T0F1C 001:700 JLINK_ReadMem (0x20000164, 0x0400 Bytes, ...) -- CPU_ReadMem(1088 bytes @ 0x20000140) -- Updating C cache (1088 bytes @ 0x20000140) -- Read from C cache (1024 bytes @ 0x20000164) - Data: 04 E0 32 46 29 46 40 46 FF F7 96 FF 20 46 07 F0 ...  returns 0x00 (0008ms, 0884ms total)
T0F1C 001:708 JLINK_WriteReg(R0, 0x08001400)  returns 0x00 (0000ms, 0884ms total)
T0F1C 001:708 JLINK_WriteReg(R1, 0x00000400)  returns 0x00 (0000ms, 0884ms total)
T0F1C 001:708 JLINK_WriteReg(R2, 0x20000164)  returns 0x00 (0000ms, 0884ms total)
T0F1C 001:708 JLINK_WriteReg(R3, 0x00000000)  returns 0x00 (0000ms, 0884ms total)
T0F1C 001:708 JLINK_WriteReg(R4, 0x00000000)  returns 0x00 (0000ms, 0884ms total)
T0F1C 001:708 JLINK_WriteReg(R5, 0x00000000)  returns 0x00 (0000ms, 0884ms total)
T0F1C 001:708 JLINK_WriteReg(R6, 0x00000000)  returns 0x00 (0000ms, 0884ms total)
T0F1C 001:708 JLINK_WriteReg(R7, 0x00000000)  returns 0x00 (0000ms, 0884ms total)
T0F1C 001:708 JLINK_WriteReg(R8, 0x00000000)  returns 0x00 (0001ms, 0885ms total)
T0F1C 001:709 JLINK_WriteReg(R9, 0x20000160)  returns 0x00 (0000ms, 0885ms total)
T0F1C 001:709 JLINK_WriteReg(R10, 0x00000000)  returns 0x00 (0000ms, 0885ms total)
T0F1C 001:709 JLINK_WriteReg(R11, 0x00000000)  returns 0x00 (0000ms, 0885ms total)
T0F1C 001:709 JLINK_WriteReg(R12, 0x00000000)  returns 0x00 (0000ms, 0885ms total)
T0F1C 001:709 JLINK_WriteReg(R13 (SP), 0x20000800)  returns 0x00 (0000ms, 0885ms total)
T0F1C 001:709 JLINK_WriteReg(R14, 0x20000001)  returns 0x00 (0000ms, 0885ms total)
T0F1C 001:709 JLINK_WriteReg(R15 (PC), 0x200000F4)  returns 0x00 (0000ms, 0885ms total)
T0F1C 001:709 JLINK_WriteReg(XPSR, 0x01000000)  returns 0x00 (0000ms, 0885ms total)
T0F1C 001:709 JLINK_WriteReg(MSP, 0x20000800)  returns 0x00 (0000ms, 0885ms total)
T0F1C 001:709 JLINK_WriteReg(PSP, 0x20000800)  returns 0x00 (0000ms, 0885ms total)
T0F1C 001:709 JLINK_WriteReg(CFBP, 0x00000000)  returns 0x00 (0001ms, 0886ms total)
T0F1C 001:710 JLINK_SetBPEx(Addr = 0x20000000, Type = 0xFFFFFFF2)  returns 0x0000000A (0000ms, 0886ms total)
T0F1C 001:710 JLINK_Go() (0002ms, 0888ms total)
T0F1C 001:712 JLINK_IsHalted()  returns FALSE (0001ms, 0889ms total)
T0F1C 001:763 JLINK_IsHalted() -- CPU_ReadMem(2 bytes @ 0x20000000)  returns TRUE (0005ms, 0893ms total)
T0F1C 001:768 JLINK_ReadReg(R15 (PC))  returns 0x20000000 (0001ms, 0889ms total)
T0F1C 001:769 JLINK_ClrBPEx(BPHandle = 0x0000000A)  returns 0x00 (0000ms, 0889ms total)
T0F1C 001:769 JLINK_ReadReg(R0)  returns 0x00000000 (0000ms, 0889ms total)
T0F1C 001:769 JLINK_WriteMem(0x20000164, 0x0400 Bytes, ...) - Data: 79 D1 08 46 00 68 80 78 08 31 08 60 08 46 00 68 ... -- CPU_WriteMem(1024 bytes @ 0x20000164)  returns 0x400 (0007ms, 0896ms total)
T0F1C 001:776 JLINK_ReadMem (0x20000164, 0x0400 Bytes, ...) -- CPU_ReadMem(1088 bytes @ 0x20000140) -- Updating C cache (1088 bytes @ 0x20000140) -- Read from C cache (1024 bytes @ 0x20000164) - Data: 79 D1 08 46 00 68 80 78 08 31 08 60 08 46 00 68 ...  returns 0x00 (0008ms, 0904ms total)
T0F1C 001:784 JLINK_WriteReg(R0, 0x08001800)  returns 0x00 (0000ms, 0904ms total)
T0F1C 001:784 JLINK_WriteReg(R1, 0x00000400)  returns 0x00 (0000ms, 0904ms total)
T0F1C 001:784 JLINK_WriteReg(R2, 0x20000164)  returns 0x00 (0000ms, 0904ms total)
T0F1C 001:784 JLINK_WriteReg(R3, 0x00000000)  returns 0x00 (0001ms, 0905ms total)
T0F1C 001:785 JLINK_WriteReg(R4, 0x00000000)  returns 0x00 (0000ms, 0905ms total)
T0F1C 001:785 JLINK_WriteReg(R5, 0x00000000)  returns 0x00 (0000ms, 0905ms total)
T0F1C 001:785 JLINK_WriteReg(R6, 0x00000000)  returns 0x00 (0000ms, 0905ms total)
T0F1C 001:785 JLINK_WriteReg(R7, 0x00000000)  returns 0x00 (0000ms, 0905ms total)
T0F1C 001:786 JLINK_WriteReg(R8, 0x00000000)  returns 0x00 (0000ms, 0905ms total)
T0F1C 001:786 JLINK_WriteReg(R9, 0x20000160)  returns 0x00 (0000ms, 0905ms total)
T0F1C 001:786 JLINK_WriteReg(R10, 0x00000000)  returns 0x00 (0000ms, 0905ms total)
T0F1C 001:786 JLINK_WriteReg(R11, 0x00000000)  returns 0x00 (0000ms, 0905ms total)
T0F1C 001:786 JLINK_WriteReg(R12, 0x00000000)  returns 0x00 (0000ms, 0905ms total)
T0F1C 001:786 JLINK_WriteReg(R13 (SP), 0x20000800)  returns 0x00 (0000ms, 0905ms total)
T0F1C 001:786 JLINK_WriteReg(R14, 0x20000001)  returns 0x00 (0001ms, 0906ms total)
T0F1C 001:787 JLINK_WriteReg(R15 (PC), 0x200000F4)  returns 0x00 (0000ms, 0906ms total)
T0F1C 001:787 JLINK_WriteReg(XPSR, 0x01000000)  returns 0x00 (0000ms, 0906ms total)
T0F1C 001:787 JLINK_WriteReg(MSP, 0x20000800)  returns 0x00 (0000ms, 0906ms total)
T0F1C 001:787 JLINK_WriteReg(PSP, 0x20000800)  returns 0x00 (0000ms, 0906ms total)
T0F1C 001:787 JLINK_WriteReg(CFBP, 0x00000000)  returns 0x00 (0000ms, 0906ms total)
T0F1C 001:787 JLINK_SetBPEx(Addr = 0x20000000, Type = 0xFFFFFFF2)  returns 0x0000000B (0000ms, 0906ms total)
T0F1C 001:788 JLINK_Go() (0002ms, 0909ms total)
T0F1C 001:790 JLINK_IsHalted()  returns FALSE (0001ms, 0910ms total)
T0F1C 001:841 JLINK_IsHalted() -- CPU_ReadMem(2 bytes @ 0x20000000)  returns TRUE (0007ms, 0916ms total)
T0F1C 001:848 JLINK_ReadReg(R15 (PC))  returns 0x20000000 (0000ms, 0909ms total)
T0F1C 001:848 JLINK_ClrBPEx(BPHandle = 0x0000000B)  returns 0x00 (0000ms, 0909ms total)
T0F1C 001:848 JLINK_ReadReg(R0)  returns 0x00000000 (0000ms, 0909ms total)
T0F1C 001:849 JLINK_WriteMem(0x20000164, 0x0400 Bytes, ...) - Data: 08 F4 E0 61 09 0A DF F8 6C 80 18 F8 01 40 D0 F8 ... -- CPU_WriteMem(1024 bytes @ 0x20000164)  returns 0x400 (0008ms, 0917ms total)
T0F1C 001:857 JLINK_ReadMem (0x20000164, 0x0400 Bytes, ...) -- CPU_ReadMem(1088 bytes @ 0x20000140) -- Updating C cache (1088 bytes @ 0x20000140) -- Read from C cache (1024 bytes @ 0x20000164) - Data: 08 F4 E0 61 09 0A DF F8 6C 80 18 F8 01 40 D0 F8 ...  returns 0x00 (0008ms, 0925ms total)
T0F1C 001:866 JLINK_WriteReg(R0, 0x08001C00)  returns 0x00 (0000ms, 0925ms total)
T0F1C 001:866 JLINK_WriteReg(R1, 0x00000400)  returns 0x00 (0000ms, 0925ms total)
T0F1C 001:866 JLINK_WriteReg(R2, 0x20000164)  returns 0x00 (0000ms, 0925ms total)
T0F1C 001:866 JLINK_WriteReg(R3, 0x00000000)  returns 0x00 (0001ms, 0926ms total)
T0F1C 001:867 JLINK_WriteReg(R4, 0x00000000)  returns 0x00 (0000ms, 0926ms total)
T0F1C 001:867 JLINK_WriteReg(R5, 0x00000000)  returns 0x00 (0000ms, 0926ms total)
T0F1C 001:867 JLINK_WriteReg(R6, 0x00000000)  returns 0x00 (0000ms, 0926ms total)
T0F1C 001:867 JLINK_WriteReg(R7, 0x00000000)  returns 0x00 (0000ms, 0926ms total)
T0F1C 001:867 JLINK_WriteReg(R8, 0x00000000)  returns 0x00 (0000ms, 0926ms total)
T0F1C 001:867 JLINK_WriteReg(R9, 0x20000160)  returns 0x00 (0000ms, 0926ms total)
T0F1C 001:867 JLINK_WriteReg(R10, 0x00000000)  returns 0x00 (0001ms, 0927ms total)
T0F1C 001:868 JLINK_WriteReg(R11, 0x00000000)  returns 0x00 (0000ms, 0927ms total)
T0F1C 001:868 JLINK_WriteReg(R12, 0x00000000)  returns 0x00 (0000ms, 0927ms total)
T0F1C 001:868 JLINK_WriteReg(R13 (SP), 0x20000800)  returns 0x00 (0000ms, 0927ms total)
T0F1C 001:868 JLINK_WriteReg(R14, 0x20000001)  returns 0x00 (0000ms, 0927ms total)
T0F1C 001:868 JLINK_WriteReg(R15 (PC), 0x200000F4)  returns 0x00 (0000ms, 0927ms total)
T0F1C 001:868 JLINK_WriteReg(XPSR, 0x01000000)  returns 0x00 (0001ms, 0928ms total)
T0F1C 001:869 JLINK_WriteReg(MSP, 0x20000800)  returns 0x00 (0000ms, 0928ms total)
T0F1C 001:869 JLINK_WriteReg(PSP, 0x20000800)  returns 0x00 (0000ms, 0928ms total)
T0F1C 001:869 JLINK_WriteReg(CFBP, 0x00000000)  returns 0x00 (0000ms, 0928ms total)
T0F1C 001:869 JLINK_SetBPEx(Addr = 0x20000000, Type = 0xFFFFFFF2)  returns 0x0000000C (0000ms, 0928ms total)
T0F1C 001:869 JLINK_Go() (0003ms, 0931ms total)
T0F1C 001:872 JLINK_IsHalted()  returns FALSE (0001ms, 0932ms total)
T0F1C 001:923 JLINK_IsHalted() -- CPU_ReadMem(2 bytes @ 0x20000000)  returns TRUE (0006ms, 0937ms total)
T0F1C 001:929 JLINK_ReadReg(R15 (PC))  returns 0x20000000 (0000ms, 0931ms total)
T0F1C 001:930 JLINK_ClrBPEx(BPHandle = 0x0000000C)  returns 0x00 (0000ms, 0931ms total)
T0F1C 001:930 JLINK_ReadReg(R0)  returns 0x00000000 (0000ms, 0931ms total)
T0F1C 001:931 JLINK_WriteMem(0x20000164, 0x0400 Bytes, ...) - Data: 88 60 00 20 C8 62 FF F7 27 FF 4F F0 00 60 04 49 ... -- CPU_WriteMem(1024 bytes @ 0x20000164)  returns 0x400 (0008ms, 0939ms total)
T0F1C 001:939 JLINK_ReadMem (0x20000164, 0x0400 Bytes, ...) -- CPU_ReadMem(1088 bytes @ 0x20000140) -- Updating C cache (1088 bytes @ 0x20000140) -- Read from C cache (1024 bytes @ 0x20000164) - Data: 88 60 00 20 C8 62 FF F7 27 FF 4F F0 00 60 04 49 ...  returns 0x00 (0011ms, 0950ms total)
T0F1C 001:950 JLINK_WriteReg(R0, 0x08002000)  returns 0x00 (0000ms, 0950ms total)
T0F1C 001:950 JLINK_WriteReg(R1, 0x00000400)  returns 0x00 (0000ms, 0950ms total)
T0F1C 001:950 JLINK_WriteReg(R2, 0x20000164)  returns 0x00 (0000ms, 0950ms total)
T0F1C 001:950 JLINK_WriteReg(R3, 0x00000000)  returns 0x00 (0000ms, 0950ms total)
T0F1C 001:950 JLINK_WriteReg(R4, 0x00000000)  returns 0x00 (0000ms, 0950ms total)
T0F1C 001:950 JLINK_WriteReg(R5, 0x00000000)  returns 0x00 (0001ms, 0951ms total)
T0F1C 001:951 JLINK_WriteReg(R6, 0x00000000)  returns 0x00 (0000ms, 0951ms total)
T0F1C 001:951 JLINK_WriteReg(R7, 0x00000000)  returns 0x00 (0000ms, 0951ms total)
T0F1C 001:951 JLINK_WriteReg(R8, 0x00000000)  returns 0x00 (0000ms, 0951ms total)
T0F1C 001:951 JLINK_WriteReg(R9, 0x20000160)  returns 0x00 (0000ms, 0951ms total)
T0F1C 001:951 JLINK_WriteReg(R10, 0x00000000)  returns 0x00 (0000ms, 0951ms total)
T0F1C 001:951 JLINK_WriteReg(R11, 0x00000000)  returns 0x00 (0001ms, 0952ms total)
T0F1C 001:952 JLINK_WriteReg(R12, 0x00000000)  returns 0x00 (0000ms, 0952ms total)
T0F1C 001:952 JLINK_WriteReg(R13 (SP), 0x20000800)  returns 0x00 (0000ms, 0952ms total)
T0F1C 001:952 JLINK_WriteReg(R14, 0x20000001)  returns 0x00 (0000ms, 0952ms total)
T0F1C 001:952 JLINK_WriteReg(R15 (PC), 0x200000F4)  returns 0x00 (0000ms, 0952ms total)
T0F1C 001:952 JLINK_WriteReg(XPSR, 0x01000000)  returns 0x00 (0001ms, 0953ms total)
T0F1C 001:953 JLINK_WriteReg(MSP, 0x20000800)  returns 0x00 (0000ms, 0953ms total)
T0F1C 001:953 JLINK_WriteReg(PSP, 0x20000800)  returns 0x00 (0000ms, 0953ms total)
T0F1C 001:953 JLINK_WriteReg(CFBP, 0x00000000)  returns 0x00 (0000ms, 0953ms total)
T0F1C 001:953 JLINK_SetBPEx(Addr = 0x20000000, Type = 0xFFFFFFF2)  returns 0x0000000D (0000ms, 0953ms total)
T0F1C 001:953 JLINK_Go() (0003ms, 0956ms total)
T0F1C 001:956 JLINK_IsHalted()  returns FALSE (0002ms, 0958ms total)
T0F1C 002:008 JLINK_IsHalted() -- CPU_ReadMem(2 bytes @ 0x20000000)  returns TRUE (0012ms, 0968ms total)
T0F1C 002:020 JLINK_ReadReg(R15 (PC))  returns 0x20000000 (0000ms, 0956ms total)
T0F1C 002:020 JLINK_ClrBPEx(BPHandle = 0x0000000D)  returns 0x00 (0000ms, 0956ms total)
T0F1C 002:020 JLINK_ReadReg(R0)  returns 0x00000000 (0001ms, 0957ms total)
T0F1C 002:021 JLINK_WriteMem(0x20000164, 0x0400 Bytes, ...) - Data: 02 E0 1F 68 B7 43 1F 60 F0 BD 00 00 2D E9 F0 47 ... -- CPU_WriteMem(1024 bytes @ 0x20000164)  returns 0x400 (0008ms, 0965ms total)
T0F1C 002:029 JLINK_ReadMem (0x20000164, 0x0400 Bytes, ...) -- CPU_ReadMem(1088 bytes @ 0x20000140) -- Updating C cache (1088 bytes @ 0x20000140) -- Read from C cache (1024 bytes @ 0x20000164) - Data: 02 E0 1F 68 B7 43 1F 60 F0 BD 00 00 2D E9 F0 47 ...  returns 0x00 (0007ms, 0972ms total)
T0F1C 002:036 JLINK_WriteReg(R0, 0x08002400)  returns 0x00 (0000ms, 0972ms total)
T0F1C 002:036 JLINK_WriteReg(R1, 0x00000400)  returns 0x00 (0000ms, 0972ms total)
T0F1C 002:036 JLINK_WriteReg(R2, 0x20000164)  returns 0x00 (0001ms, 0973ms total)
T0F1C 002:037 JLINK_WriteReg(R3, 0x00000000)  returns 0x00 (0000ms, 0973ms total)
T0F1C 002:037 JLINK_WriteReg(R4, 0x00000000)  returns 0x00 (0000ms, 0973ms total)
T0F1C 002:037 JLINK_WriteReg(R5, 0x00000000)  returns 0x00 (0000ms, 0973ms total)
T0F1C 002:037 JLINK_WriteReg(R6, 0x00000000)  returns 0x00 (0000ms, 0973ms total)
T0F1C 002:037 JLINK_WriteReg(R7, 0x00000000)  returns 0x00 (0000ms, 0973ms total)
T0F1C 002:037 JLINK_WriteReg(R8, 0x00000000)  returns 0x00 (0000ms, 0973ms total)
T0F1C 002:037 JLINK_WriteReg(R9, 0x20000160)  returns 0x00 (0000ms, 0973ms total)
T0F1C 002:037 JLINK_WriteReg(R10, 0x00000000)  returns 0x00 (0000ms, 0973ms total)
T0F1C 002:037 JLINK_WriteReg(R11, 0x00000000)  returns 0x00 (0000ms, 0973ms total)
T0F1C 002:037 JLINK_WriteReg(R12, 0x00000000)  returns 0x00 (0000ms, 0973ms total)
T0F1C 002:037 JLINK_WriteReg(R13 (SP), 0x20000800)  returns 0x00 (0000ms, 0973ms total)
T0F1C 002:037 JLINK_WriteReg(R14, 0x20000001)  returns 0x00 (0001ms, 0974ms total)
T0F1C 002:038 JLINK_WriteReg(R15 (PC), 0x200000F4)  returns 0x00 (0000ms, 0974ms total)
T0F1C 002:038 JLINK_WriteReg(XPSR, 0x01000000)  returns 0x00 (0000ms, 0974ms total)
T0F1C 002:038 JLINK_WriteReg(MSP, 0x20000800)  returns 0x00 (0000ms, 0974ms total)
T0F1C 002:038 JLINK_WriteReg(PSP, 0x20000800)  returns 0x00 (0000ms, 0974ms total)
T0F1C 002:038 JLINK_WriteReg(CFBP, 0x00000000)  returns 0x00 (0000ms, 0974ms total)
T0F1C 002:038 JLINK_SetBPEx(Addr = 0x20000000, Type = 0xFFFFFFF2)  returns 0x0000000E (0000ms, 0974ms total)
T0F1C 002:038 JLINK_Go() (0002ms, 0976ms total)
T0F1C 002:040 JLINK_IsHalted()  returns FALSE (0001ms, 0977ms total)
T0F1C 002:091 JLINK_IsHalted() -- CPU_ReadMem(2 bytes @ 0x20000000)  returns TRUE (0006ms, 0982ms total)
T0F1C 002:097 JLINK_ReadReg(R15 (PC))  returns 0x20000000 (0000ms, 0976ms total)
T0F1C 002:097 JLINK_ClrBPEx(BPHandle = 0x0000000E)  returns 0x00 (0000ms, 0976ms total)
T0F1C 002:097 JLINK_ReadReg(R0)  returns 0x00000000 (0000ms, 0976ms total)
T0F1C 002:098 JLINK_WriteMem(0x20000164, 0x0400 Bytes, ...) - Data: 00 28 F4 D1 04 A9 A1 EB 0B 00 00 F1 20 00 02 90 ... -- CPU_WriteMem(1024 bytes @ 0x20000164)  returns 0x400 (0007ms, 0983ms total)
T0F1C 002:105 JLINK_ReadMem (0x20000164, 0x0400 Bytes, ...) -- CPU_ReadMem(1088 bytes @ 0x20000140) -- Updating C cache (1088 bytes @ 0x20000140) -- Read from C cache (1024 bytes @ 0x20000164) - Data: 00 28 F4 D1 04 A9 A1 EB 0B 00 00 F1 20 00 02 90 ...  returns 0x00 (0007ms, 0990ms total)
T0F1C 002:112 JLINK_WriteReg(R0, 0x08002800)  returns 0x00 (0001ms, 0991ms total)
T0F1C 002:113 JLINK_WriteReg(R1, 0x00000400)  returns 0x00 (0000ms, 0991ms total)
T0F1C 002:113 JLINK_WriteReg(R2, 0x20000164)  returns 0x00 (0000ms, 0991ms total)
T0F1C 002:113 JLINK_WriteReg(R3, 0x00000000)  returns 0x00 (0000ms, 0991ms total)
T0F1C 002:113 JLINK_WriteReg(R4, 0x00000000)  returns 0x00 (0000ms, 0991ms total)
T0F1C 002:113 JLINK_WriteReg(R5, 0x00000000)  returns 0x00 (0000ms, 0991ms total)
T0F1C 002:113 JLINK_WriteReg(R6, 0x00000000)  returns 0x00 (0000ms, 0991ms total)
T0F1C 002:113 JLINK_WriteReg(R7, 0x00000000)  returns 0x00 (0000ms, 0991ms total)
T0F1C 002:113 JLINK_WriteReg(R8, 0x00000000)  returns 0x00 (0000ms, 0991ms total)
T0F1C 002:113 JLINK_WriteReg(R9, 0x20000160)  returns 0x00 (0000ms, 0991ms total)
T0F1C 002:113 JLINK_WriteReg(R10, 0x00000000)  returns 0x00 (0000ms, 0991ms total)
T0F1C 002:114 JLINK_WriteReg(R11, 0x00000000)  returns 0x00 (0000ms, 0992ms total)
T0F1C 002:114 JLINK_WriteReg(R12, 0x00000000)  returns 0x00 (0000ms, 0992ms total)
T0F1C 002:114 JLINK_WriteReg(R13 (SP), 0x20000800)  returns 0x00 (0000ms, 0992ms total)
T0F1C 002:114 JLINK_WriteReg(R14, 0x20000001)  returns 0x00 (0000ms, 0992ms total)
T0F1C 002:114 JLINK_WriteReg(R15 (PC), 0x200000F4)  returns 0x00 (0000ms, 0992ms total)
T0F1C 002:114 JLINK_WriteReg(XPSR, 0x01000000)  returns 0x00 (0000ms, 0992ms total)
T0F1C 002:114 JLINK_WriteReg(MSP, 0x20000800)  returns 0x00 (0000ms, 0992ms total)
T0F1C 002:114 JLINK_WriteReg(PSP, 0x20000800)  returns 0x00 (0000ms, 0992ms total)
T0F1C 002:114 JLINK_WriteReg(CFBP, 0x00000000)  returns 0x00 (0000ms, 0992ms total)
T0F1C 002:114 JLINK_SetBPEx(Addr = 0x20000000, Type = 0xFFFFFFF2)  returns 0x0000000F (0002ms, 0994ms total)
T0F1C 002:116 JLINK_Go() (0003ms, 0997ms total)
T0F1C 002:119 JLINK_IsHalted()  returns FALSE (0001ms, 0998ms total)
T0F1C 002:170 JLINK_IsHalted() -- CPU_ReadMem(2 bytes @ 0x20000000)  returns TRUE (0006ms, 1003ms total)
T0F1C 002:176 JLINK_ReadReg(R15 (PC))  returns 0x20000000 (0000ms, 0997ms total)
T0F1C 002:176 JLINK_ClrBPEx(BPHandle = 0x0000000F)  returns 0x00 (0000ms, 0997ms total)
T0F1C 002:176 JLINK_ReadReg(R0)  returns 0x00000000 (0000ms, 0997ms total)
T0F1C 002:177 JLINK_WriteMem(0x20000164, 0x0400 Bytes, ...) - Data: C8 60 00 20 69 69 08 61 69 69 48 61 69 69 88 61 ... -- CPU_WriteMem(1024 bytes @ 0x20000164)  returns 0x400 (0007ms, 1004ms total)
T0F1C 002:184 JLINK_ReadMem (0x20000164, 0x0400 Bytes, ...) -- CPU_ReadMem(1088 bytes @ 0x20000140) -- Updating C cache (1088 bytes @ 0x20000140) -- Read from C cache (1024 bytes @ 0x20000164) - Data: C8 60 00 20 69 69 08 61 69 69 48 61 69 69 88 61 ...  returns 0x00 (0008ms, 1012ms total)
T0F1C 002:192 JLINK_WriteReg(R0, 0x08002C00)  returns 0x00 (0000ms, 1012ms total)
T0F1C 002:192 JLINK_WriteReg(R1, 0x00000400)  returns 0x00 (0000ms, 1012ms total)
T0F1C 002:192 JLINK_WriteReg(R2, 0x20000164)  returns 0x00 (0000ms, 1012ms total)
T0F1C 002:192 JLINK_WriteReg(R3, 0x00000000)  returns 0x00 (0000ms, 1012ms total)
T0F1C 002:192 JLINK_WriteReg(R4, 0x00000000)  returns 0x00 (0000ms, 1012ms total)
T0F1C 002:192 JLINK_WriteReg(R5, 0x00000000)  returns 0x00 (0000ms, 1012ms total)
T0F1C 002:192 JLINK_WriteReg(R6, 0x00000000)  returns 0x00 (0000ms, 1012ms total)
T0F1C 002:192 JLINK_WriteReg(R7, 0x00000000)  returns 0x00 (0000ms, 1012ms total)
T0F1C 002:192 JLINK_WriteReg(R8, 0x00000000)  returns 0x00 (0000ms, 1012ms total)
T0F1C 002:192 JLINK_WriteReg(R9, 0x20000160)  returns 0x00 (0000ms, 1012ms total)
T0F1C 002:192 JLINK_WriteReg(R10, 0x00000000)  returns 0x00 (0000ms, 1012ms total)
T0F1C 002:193 JLINK_WriteReg(R11, 0x00000000)  returns 0x00 (0000ms, 1013ms total)
T0F1C 002:193 JLINK_WriteReg(R12, 0x00000000)  returns 0x00 (0000ms, 1013ms total)
T0F1C 002:193 JLINK_WriteReg(R13 (SP), 0x20000800)  returns 0x00 (0000ms, 1013ms total)
T0F1C 002:193 JLINK_WriteReg(R14, 0x20000001)  returns 0x00 (0000ms, 1013ms total)
T0F1C 002:193 JLINK_WriteReg(R15 (PC), 0x200000F4)  returns 0x00 (0000ms, 1013ms total)
T0F1C 002:193 JLINK_WriteReg(XPSR, 0x01000000)  returns 0x00 (0000ms, 1013ms total)
T0F1C 002:193 JLINK_WriteReg(MSP, 0x20000800)  returns 0x00 (0000ms, 1013ms total)
T0F1C 002:193 JLINK_WriteReg(PSP, 0x20000800)  returns 0x00 (0000ms, 1013ms total)
T0F1C 002:193 JLINK_WriteReg(CFBP, 0x00000000)  returns 0x00 (0000ms, 1013ms total)
T0F1C 002:193 JLINK_SetBPEx(Addr = 0x20000000, Type = 0xFFFFFFF2)  returns 0x00000010 (0000ms, 1013ms total)
T0F1C 002:193 JLINK_Go() (0003ms, 1016ms total)
T0F1C 002:196 JLINK_IsHalted()  returns FALSE (0001ms, 1017ms total)
T0F1C 002:247 JLINK_IsHalted() -- CPU_ReadMem(2 bytes @ 0x20000000)  returns TRUE (0006ms, 1022ms total)
T0F1C 002:253 JLINK_ReadReg(R15 (PC))  returns 0x20000000 (0000ms, 1016ms total)
T0F1C 002:253 JLINK_ClrBPEx(BPHandle = 0x00000010)  returns 0x00 (0000ms, 1016ms total)
T0F1C 002:253 JLINK_ReadReg(R0)  returns 0x00000000 (0001ms, 1017ms total)
T0F1C 002:255 JLINK_WriteMem(0x20000164, 0x0400 Bytes, ...) - Data: F0 32 13 55 C1 F3 07 43 04 8B 62 1C 02 83 42 69 ... -- CPU_WriteMem(1024 bytes @ 0x20000164)  returns 0x400 (0009ms, 1026ms total)
T0F1C 002:264 JLINK_ReadMem (0x20000164, 0x0400 Bytes, ...) -- CPU_ReadMem(1088 bytes @ 0x20000140) -- Updating C cache (1088 bytes @ 0x20000140) -- Read from C cache (1024 bytes @ 0x20000164) - Data: F0 32 13 55 C1 F3 07 43 04 8B 62 1C 02 83 42 69 ...  returns 0x00 (0008ms, 1034ms total)
T0F1C 002:272 JLINK_WriteReg(R0, 0x08003000)  returns 0x00 (0000ms, 1034ms total)
